T0D68 000:000.404   SEGGER J-Link V7.96a Log File
T0D68 000:000.513   DLL Compiled: Mar 14 2024 17:11:32
T0D68 000:000.517   Logging started @ 2024-06-17 07:55
T0D68 000:000.522   Process: C:\Users\Tu\.eclipse\com.renesas.platform_1211965001\DebugComp\RA\e2-server-gdb.exe
T0D68 000:000.527 - 0.525ms
T0D68 000:000.538 JLINK_GetDLLVersion()
T0D68 000:000.544 - 0.005ms returns 79601
T0D68 000:001.430 JLINK_OpenEx(...)
T0D68 000:008.797   Firmware: J-Link OB-RA4M2 compiled Apr 23 2024 10:48:30
T0D68 000:012.054   Firmware: J-Link OB-RA4M2 compiled Apr 23 2024 10:48:30
T0D68 000:029.504   Hardware: V1.00
T0D68 000:029.579   S/N: 1080305546
T0D68 000:029.596   OEM: SEGGER
T0D68 000:029.620   Feature(s): None
T0D68 000:032.487   Bootloader: 2021 May 14
T0D68 000:046.982   USB speed mode: Full speed (12 MBit/s)
T0D68 000:048.369   TELNET listener socket opened on port 19021
T0D68 000:048.676   WEBSRV WEBSRV_Init(): Starting webserver thread(s)
T0D68 000:048.818   WEBSRV Failed to put socket into listener state (port 19080)
T0D68 000:048.983   WEBSRV Webserver running on local port 19081
T0D68 000:049.416   Looking for J-Link GUI Server exe at: C:\Users\Tu\.eclipse\com.renesas.platform_1211965001\DebugComp\RA\ARM\Segger_v7.96.1\JLinkGUIServer.exe
T0D68 000:049.661   Looking for J-Link GUI Server exe at: C:\Users\Tu\SEGGER\JLink_V796g\JLinkGUIServer.exe
T0D68 000:049.729   Forking J-Link GUI Server: C:\Users\Tu\SEGGER\JLink_V796g\JLinkGUIServer.exe
T0D68 000:056.094   J-Link GUI Server info: "J-Link GUI server V7.96g "
T0D68 000:056.552 - 55.107ms returns "O.K."
T0D68 000:056.782 JLINK_TIF_Select(JLINKARM_TIF_SWD)
T0D68 000:061.124 - 4.341ms returns 0x00
T0D68 000:061.192 JLINK_ClrRESET()
T0D68 000:077.760 - 16.567ms
T0D68 000:128.179 JLINK_SetSpeed(1500)
T0D68 000:130.555 - 2.387ms
T0D68 000:130.713 JLINK_CORESIGHT_Configure(PerformTIFInit=0)
T0D68 000:132.951 - 2.237ms returns 0
T0D68 000:133.213 JLINK_CORESIGHT_ReadAPDPReg(DP reg 0x00)
T0D68 000:134.013   Value=0x6BA02477
T0D68 000:134.091 - 0.884ms returns 0
T0D68 000:134.289 JLINK_CORESIGHT_WriteAPDPReg(DP reg 0x00, 0x0000001F)
T0D68 000:135.096 - 0.807ms returns 0
T0D68 000:135.299 JLINK_CORESIGHT_ReadAPDPReg(DP reg 0x00)
T0D68 000:140.140   Value=0x6BA02477
T0D68 000:140.185 - 4.887ms returns 0
T0D68 000:140.588 JLINK_CORESIGHT_WriteAPDPReg(DP reg 0x02, 0x00000000)
T0D68 000:141.407 - 0.819ms returns 0
T0D68 000:141.475 JLINK_CORESIGHT_WriteAPDPReg(DP reg 0x01, 0x50000000)
T0D68 000:142.018 - 0.542ms returns 0
T0D68 000:142.083 JLINK_CORESIGHT_ReadAPDPReg(DP reg 0x01)
T0D68 000:142.577   Value=0xF0000000
T0D68 000:142.612 - 0.528ms returns 0
T0D68 000:142.657 JLINK_CORESIGHT_WriteAPDPReg(DP reg 0x00, 0x0000001F)
T0D68 000:153.625 - 10.967ms returns 0
T0D68 000:153.713 JLINK_CORESIGHT_ReadAPDPReg(DP reg 0x00)
T0D68 000:169.807   Value=0x6BA02477
T0D68 000:169.835 - 16.122ms returns 0
T0D68 000:169.966 JLINK_CORESIGHT_WriteAPDPReg(DP reg 0x01, 0x54000000)
T0D68 000:201.163 - 31.196ms returns 0
T0D68 000:201.224 JLINK_CORESIGHT_WriteAPDPReg(DP reg 0x01, 0x50000F00)
T0D68 000:201.804 - 0.579ms returns 0
T0D68 000:201.855 JLINK_CORESIGHT_WriteAPDPReg(DP reg 0x02, 0x01000000)
T0D68 000:266.726 - 64.871ms returns 0
T0D68 000:266.802 JLINK_CORESIGHT_WriteAPDPReg(AP reg 0x00, 0x80000002)
T0D68 000:267.458 - 0.655ms returns 0
T0D68 000:267.510 JLINK_CORESIGHT_WriteAPDPReg(AP reg 0x01, 0x80011100)
T0D68 000:267.879 - 0.369ms returns 0
T0D68 000:267.915 JLINK_CORESIGHT_WriteAPDPReg(AP reg 0x03, 0x000000A5)
T0D68 000:268.339 - 0.423ms returns 0
T0D68 000:268.377 JLINK_CORESIGHT_WriteAPDPReg(AP reg 0x00, 0x80000002)
T0D68 000:279.789 - 11.409ms returns 0
T0D68 000:279.869 JLINK_CORESIGHT_WriteAPDPReg(AP reg 0x01, 0x80011100)
T0D68 000:280.373 - 0.503ms returns 0
T0D68 000:280.480 JLINK_CORESIGHT_ReadAPDPReg(AP reg 0x03)
T0D68 000:280.976   Value=0x000000A5
T0D68 000:280.988 - 0.507ms returns 0
T0D68 000:281.031 JLINK_ClrTMS()
T0D68 000:281.383 - 0.351ms
T0D68 000:287.493 JLINK_SetTCK()
T0D68 000:287.767 - 0.272ms returns 0
T0D68 000:293.504 JLINK_SetRESET()
T0D68 000:294.119 - 0.614ms
T0D68 000:494.533 JLINK_CORESIGHT_WriteAPDPReg(AP reg 0x00, 0x80000002)
T0D68 000:495.454 - 0.920ms returns 0
T0D68 000:495.483 JLINK_CORESIGHT_WriteAPDPReg(AP reg 0x01, 0x80011100)
T0D68 000:495.827 - 0.343ms returns 0
T0D68 000:495.866 JLINK_CORESIGHT_ReadAPDPReg(AP reg 0x03)
T0D68 000:496.248   failed
T0D68 000:496.258 - 0.392ms returns -1
T0D68 000:496.321 JLINK_ClrRESET()
T0D68 000:512.588 - 16.266ms
T0D68 000:563.314 JLINK_SetSpeed(1500)
T0D68 000:564.080 - 0.766ms
T0D68 000:564.148 JLINK_CORESIGHT_Configure(PerformTIFInit=0)
T0D68 000:564.820 - 0.671ms returns 0
T0D68 000:564.893 JLINK_CORESIGHT_ReadAPDPReg(DP reg 0x00)
T0D68 000:565.381   Value=0x6BA02477
T0D68 000:565.440 - 0.546ms returns 0
T0D68 000:565.503 JLINK_CORESIGHT_WriteAPDPReg(DP reg 0x00, 0x0000001F)
T0D68 000:575.290 - 9.786ms returns 0
T0D68 000:575.459 JLINK_CORESIGHT_ReadAPDPReg(DP reg 0x00)
T0D68 000:576.754   Value=0x6BA02477
T0D68 000:576.804 - 1.346ms returns 0
T0D68 000:576.906 JLINK_CORESIGHT_WriteAPDPReg(DP reg 0x02, 0x00000000)
T0D68 000:578.303 - 1.397ms returns 0
T0D68 000:578.423 JLINK_CORESIGHT_WriteAPDPReg(DP reg 0x01, 0x50000000)
T0D68 000:578.999 - 0.576ms returns 0
T0D68 000:579.233 JLINK_CORESIGHT_ReadAPDPReg(DP reg 0x01)
T0D68 000:580.052   Value=0xF0000000
T0D68 000:580.094 - 0.861ms returns 0
T0D68 000:580.187 JLINK_CORESIGHT_WriteAPDPReg(DP reg 0x00, 0x0000001F)
T0D68 000:580.851 - 0.664ms returns 0
T0D68 000:580.915 JLINK_CORESIGHT_ReadAPDPReg(DP reg 0x00)
T0D68 000:581.328   Value=0x6BA02477
T0D68 000:581.364 - 0.449ms returns 0
T0D68 000:581.409 JLINK_CORESIGHT_WriteAPDPReg(DP reg 0x01, 0x54000000)
T0D68 000:581.836 - 0.426ms returns 0
T0D68 000:581.896 JLINK_CORESIGHT_WriteAPDPReg(DP reg 0x01, 0x50000F00)
T0D68 000:582.489 - 0.592ms returns 0
T0D68 000:582.556 JLINK_CORESIGHT_WriteAPDPReg(DP reg 0x02, 0x01000000)
T0D68 000:583.283 - 0.727ms returns 0
T0D68 000:583.389 JLINK_CORESIGHT_WriteAPDPReg(AP reg 0x00, 0x80000002)
T0D68 000:583.940 - 0.550ms returns 0
T0D68 000:584.050 JLINK_CORESIGHT_WriteAPDPReg(AP reg 0x01, 0x80011100)
T0D68 000:590.572 - 6.521ms returns 0
T0D68 000:590.681 JLINK_CORESIGHT_WriteAPDPReg(AP reg 0x03, 0x000000A5)
T0D68 000:591.505 - 0.823ms returns 0
T0D68 000:591.579 JLINK_CORESIGHT_WriteAPDPReg(AP reg 0x00, 0x80000002)
T0D68 000:593.047 - 1.468ms returns 0
T0D68 000:593.194 JLINK_CORESIGHT_WriteAPDPReg(AP reg 0x01, 0x80011100)
T0D68 000:593.807 - 0.613ms returns 0
T0D68 000:593.937 JLINK_CORESIGHT_ReadAPDPReg(AP reg 0x03)
T0D68 000:606.400   Value=0x000000A5
T0D68 000:606.490 - 12.552ms returns 0
T0D68 000:606.590 JLINK_ClrTMS()
T0D68 000:607.263 - 0.672ms
T0D68 000:612.744 JLINK_SetTCK()
T0D68 000:613.588 - 0.842ms returns 0
T0D68 000:619.205 JLINK_SetRESET()
T0D68 000:619.872 - 0.665ms
T0D68 000:821.043 JLINK_CORESIGHT_WriteAPDPReg(AP reg 0x00, 0x80000002)
T0D68 000:822.570 - 1.527ms returns 0
T0D68 000:822.653 JLINK_CORESIGHT_WriteAPDPReg(AP reg 0x01, 0x80011100)
T0D68 000:839.551 - 16.895ms returns 0
T0D68 000:839.796 JLINK_CORESIGHT_ReadAPDPReg(AP reg 0x03)
T0D68 000:841.751   failed
T0D68 000:841.830 - 2.035ms returns -1
T0D68 000:842.576 JLINK_CORESIGHT_ReadAPDPReg(DP reg 0x01)
T0D68 000:843.746   Value=0xF0000F00
T0D68 000:843.792 - 1.217ms returns 0
T0D68 000:843.884 JLINK_CORESIGHT_WriteAPDPReg(DP reg 0x01, 0xA0000F00)
T0D68 000:844.703 - 0.818ms returns 0
T0D68 000:844.851 JLINK_CORESIGHT_ReadAPDPReg(DP reg 0x01)
T0D68 000:854.075   Value=0x00000F00
T0D68 000:854.157 - 9.306ms returns 0
T0D68 000:854.318 JLINK_ClrRESET()
T0D68 000:869.898 - 15.577ms
T0D68 000:976.852 JLINK_Close()
T0D68 000:980.963 - 4.110ms
T0D68 000:981.008   
T0D68 000:981.020   Closed
